
T2D60 000:102 SEGGER J-Link V4.50j Log File (0001ms, 0102ms total)
T2D60 000:102 DLL Compiled: Jun 26 2012 09:19:07 (0001ms, 0102ms total)
T2D60 000:102 Logging started @ 2018-11-14 16:40 (0001ms, 0102ms total)
T2D60 000:103 JLINK_SetWarnOutHandler(...) (0000ms, 0102ms total)
T2D60 000:103 JLINK_OpenEx(...)
Firmware: J-Link V9 compiled Jun  2 2222 22:22:22
Hardware: V9.40
S/N: 59401308
Feature(s): GDB, RDI, FlashBP, FlashDL, JFlash, RDDI  returns O.K. (0057ms, 0159ms total)
T2D60 000:160 JLINK_SetErrorOutHandler(...) (0000ms, 0159ms total)
T2D60 000:160 JLINK_ExecCommand("Device = STM32F103VC", ...)
                JLINK_ExecCommand("map ram 0x20000000 - 0x2000BFFF", ...)  returns 0x00 (0000ms, 0000ms total)
                JLINK_AddMirrorAreaEx(Addr = 0x00000000, Size = 0x00000000) (0000ms, 0000ms total)
              Device "STM32F103VC" selected (256 KB flash, 48 KB RAM).  returns 0x00 (0002ms, 0161ms total)
T2D60 000:162 JLINK_ExecCommand("ProjectFile = "D:\Work_file\C100\Firmware_work\Firmware\Analyzer_Application\JLinkSettings.ini"", ...)  returns 0x00 (0001ms, 0162ms total)
T2D60 000:165 JLINK_ExecCommand("DisableConnectionTimeout", ...)  returns 0x00 (0000ms, 0162ms total)
T2D60 000:165 JLINK_TIF_Select(JLINKARM_TIF_SWD)  returns 0x00 (0005ms, 0167ms total)
T2D60 000:170 JLINK_SetSpeed(5000) (0001ms, 0168ms total)
T2D60 000:171 JLINK_GetHardwareVersion()  returns 0x16F30 (0000ms, 0168ms total)
T2D60 000:171 JLINK_GetDLLVersion()  returns 45010 (0000ms, 0168ms total)
T2D60 000:171 JLINK_GetFirmwareString(...) (0000ms, 0168ms total)
T2D60 000:179 JLINK_GetDLLVersion()  returns 45010 (0000ms, 0168ms total)
T2D60 000:180 JLINK_GetCompileDateTime() (0000ms, 0169ms total)
T2D60 000:182 JLINK_GetFirmwareString(...) (0000ms, 0169ms total)
T2D60 000:185 JLINK_GetHardwareVersion()  returns 0x16F30 (0000ms, 0169ms total)
T2D60 000:196 JLINK_GetId() >0x108 TIF>Found SWD-DP with ID 0x1BA01477 >0x0D TIF> >0x28 TIF> >0x0D TIF> >0x28 TIF> >0x0D TIF> >0x21 TIF> >0x0D TIF> >0x28 TIF> >0x0D TIF> >0x28 TIF> >0x0D TIF> >0x28 TIF> >0x0D TIF> >0x21 TIF> >0x0D TIF> >0x21 TIF> >0x0D TIF> >0x28 TIF> >0x0D TIF> >0x21 TIF> >0x0D TIF> >0x21 TIF> >0x0D TIF> >0x28 TIF> >0x0D TIF> >0x28 TIF> >0x108 TIF>Found SWD-DP with ID 0x1BA01477 >0x0D TIF> >0x21 TIF> >0x0D TIF> >0x28 TIF> >0x0D TIF> >0x28 TIF> >0x0D TIF> >0x21 TIF> >0x0D TIF> >0x21 TIF>
 >0x0D TIF> >0x28 TIF> >0x0D TIF> >0x21 TIF> >0x0D TIF> >0x21 TIF> >0x0D TIF> >0x21 TIF> >0x0D TIF> >0x21 TIF> >0x0D TIF> >0x21 TIF> >0x0D TIF> >0x28 TIF> >0x0D TIF> >0x28 TIF> >0x0D TIF> >0x21 TIF> >0x0D TIF> >0x21 TIF> >0x0D TIF> >0x28 TIF> >0x0D TIF> >0x21 TIF> >0x0D TIF> >0x21 TIF> >0x0D TIF> >0x28 TIF> >0x0D TIF> >0x21 TIF> >0x0D TIF> >0x21 TIF> >0x0D TIF> >0x28 TIF> >0x0D TIF> >0x28 TIF> >0x0D TIF> >0x28 TIF> >0x0D TIF> >0x21 TIF> >0x0D TIF> >0x21 TIF> >0x0D TIF> >0x28 TIF> >0x0D TIF> >0x28 TIF>
 >0x0D TIF> >0x28 TIF> >0x0D TIF> >0x28 TIF> >0x0D TIF> >0x28 TIF> >0x0D TIF> >0x21 TIF> >0x0D TIF> >0x21 TIF> >0x0D TIF> >0x21 TIF>TPIU fitted.ETM fitted. >0x0D TIF> >0x28 TIF> >0x0D TIF> >0x21 TIF> >0x0D TIF> >0x21 TIF> >0x0D TIF> >0x28 TIF> >0x0D TIF> >0x21 TIF> >0x0D TIF> >0x21 TIF>FPUnit: 6 code (BP) slots and 2 literal slots >0x0D TIF> >0x28 TIF> >0x0D TIF> >0x21 TIF> >0x0D TIF> >0x21 TIF> >0x0D TIF> >0x28 TIF> >0x0D TIF> >0x28 TIF> >0x0D TIF> >0x28 TIF> >0x0D TIF> >0x21 TIF> >0x0D TIF> >0x21 TIF>
 >0x0D TIF> >0x28 TIF> >0x0D TIF> >0x21 TIF> >0x0D TIF> >0x21 TIF> >0x0D TIF> >0x28 TIF> >0x0D TIF> >0x21 TIF> >0x0D TIF> >0x21 TIF>Found Cortex-M3 r1p1, Little endian. >0x0D TIF> >0x21 TIF>  returns 0x1BA01477 (0156ms, 0325ms total)
T2D60 000:352 JLINK_GetDebugInfo(0x100) -- Value=0xE00FF003  returns 0x00 (0000ms, 0325ms total)
T2D60 000:355 JLINK_ReadMem (0xE00FFFF0, 0x0010 Bytes, ...) -- CPU is running -- CPU_ReadMem(16 bytes @ 0xE00FFFF0) -- Data:  0D 00 00 00 10 00 00 00 05 00 00 00 B1 00 00 00  returns 0x00 (0001ms, 0326ms total)
T2D60 000:356 JLINK_ReadMem (0xE00FFFD0, 0x0020 Bytes, ...) -- CPU is running -- CPU_ReadMem(32 bytes @ 0xE00FFFD0) -- Data:  00 00 00 00 00 00 00 00 00 00 00 00 00 00 00 00 ...  returns 0x00 (0001ms, 0327ms total)
T2D60 000:357 JLINK_ReadMem (0xE00FF000, 0x0018 Bytes, ...) -- CPU is running -- CPU_ReadMem(24 bytes @ 0xE00FF000) -- Data:  03 F0 F0 FF 03 20 F0 FF 03 30 F0 FF 03 10 F0 FF ...  returns 0x00 (0001ms, 0328ms total)
T2D60 000:358 JLINK_ReadMemU32(0xE000ED00, 0x0001 Items, ...) -- CPU is running -- CPU_ReadMem(4 bytes @ 0xE000ED00) -- Data:  31 C2 1F 41  returns 0x01 (0001ms, 0329ms total)
T2D60 000:359 JLINK_SetResetType(JLINKARM_RESET_TYPE_NORMAL)  returns JLINKARM_RESET_TYPE_NORMAL (0000ms, 0329ms total)
T2D60 000:359 JLINK_Reset() -- CPU is running -- CPU_WriteMem(4 bytes @ 0xE000EDF0) -- CPU is running -- CPU_WriteMem(4 bytes @ 0xE000EDFC) >0x35 TIF> -- CPU is running -- CPU_WriteMem(4 bytes @ 0xE000ED0C) -- CPU is running -- CPU_ReadMem(4 bytes @ 0xE000EDF0) -- CPU is running -- CPU_ReadMem(4 bytes @ 0xE000EDF0) -- CPU is running -- CPU_WriteMem(4 bytes @ 0xE000EDF0) -- CPU is running -- CPU_WriteMem(4 bytes @ 0xE000EDFC) -- CPU is running -- CPU_ReadMem(4 bytes @ 0xE000EDF0)
 -- CPU_WriteMem(4 bytes @ 0xE0002000) (0021ms, 0350ms total)
T2D60 000:380 JLINK_Halt()  returns 0x00 (0000ms, 0350ms total)
T2D60 000:380 JLINK_IsHalted()  returns TRUE (0000ms, 0350ms total)
T2D60 000:380 JLINK_ReadMemU32(0xE000EDF0, 0x0001 Items, ...) -- CPU_ReadMem(4 bytes @ 0xE000EDF0) -- Data:  03 00 03 00  returns 0x01 (0001ms, 0351ms total)
T2D60 000:381 JLINK_WriteU32(0xE000EDF0, 0xA05F0003) -- CPU_WriteMem(4 bytes @ 0xE000EDF0)  returns 0x00 (0001ms, 0352ms total)
T2D60 000:382 JLINK_WriteU32(0xE000EDFC, 0x01000000) -- CPU_WriteMem(4 bytes @ 0xE000EDFC)  returns 0x00 (0001ms, 0353ms total)
T2D60 000:393 JLINK_GetHWStatus(...)  returns 0x00 (0000ms, 0353ms total)
T2D60 000:400 JLINK_GetNumBPUnits(Type = 0xFFFFFF00)  returns 0x06 (0000ms, 0353ms total)
T2D60 000:400 JLINK_GetNumBPUnits(Type = 0xF0)  returns 0x2000 (0000ms, 0353ms total)
T2D60 000:400 JLINK_GetNumWPUnits()  returns 0x04 (0000ms, 0353ms total)
T2D60 000:408 JLINK_GetSpeed()  returns 0xFA0 (0000ms, 0353ms total)
T2D60 000:413 JLINK_ReadMemU32(0xE000E004, 0x0001 Items, ...) -- CPU_ReadMem(4 bytes @ 0xE000E004) -- Data:  01 00 00 00  returns 0x01 (0001ms, 0354ms total)
T2D60 000:414 JLINK_ReadMemU32(0xE000E004, 0x0001 Items, ...) -- CPU_ReadMem(4 bytes @ 0xE000E004) -- Data:  01 00 00 00  returns 0x01 (0001ms, 0355ms total)
T2D60 000:415 JLINK_WriteMem(0xE0001000, 0x001C Bytes, ...) -- Data:  01 00 00 00 00 00 00 00 00 00 00 00 00 00 00 00 ... -- CPU_WriteMem(28 bytes @ 0xE0001000)  returns 0x1C (0001ms, 0356ms total)
T2D60 000:416 JLINK_ReadMem (0xE0001000, 0x001C Bytes, ...) -- CPU_ReadMem(28 bytes @ 0xE0001000) -- Data:  01 00 00 40 00 00 00 00 00 00 00 00 00 00 00 00 ...  returns 0x00 (0001ms, 0357ms total)
T2D60 000:417 JLINK_Halt()  returns 0x00 (0000ms, 0357ms total)
T2D60 000:417 JLINK_IsHalted()  returns TRUE (0000ms, 0357ms total)
T2D60 000:420 JLINK_WriteMem(0x20000000, 0x0164 Bytes, ...) -- Data:  00 BE 0A E0 0D 78 2D 06 68 40 08 24 40 00 00 D3 ... -- CPU_WriteMem(356 bytes @ 0x20000000)  returns 0x164 (0003ms, 0360ms total)
T2D60 000:423 JLINK_WriteReg(R0, 0x08000000)  returns 0x00 (0000ms, 0360ms total)
T2D60 000:423 JLINK_WriteReg(R1, 0x007A1200)  returns 0x00 (0000ms, 0360ms total)
T2D60 000:423 JLINK_WriteReg(R2, 0x00000001)  returns 0x00 (0000ms, 0360ms total)
T2D60 000:423 JLINK_WriteReg(R3, 0x00000000)  returns 0x00 (0000ms, 0360ms total)
T2D60 000:423 JLINK_WriteReg(R4, 0x00000000)  returns 0x00 (0000ms, 0360ms total)
T2D60 000:423 JLINK_WriteReg(R5, 0x00000000)  returns 0x00 (0000ms, 0360ms total)
T2D60 000:423 JLINK_WriteReg(R6, 0x00000000)  returns 0x00 (0000ms, 0360ms total)
T2D60 000:423 JLINK_WriteReg(R7, 0x00000000)  returns 0x00 (0000ms, 0360ms total)
T2D60 000:423 JLINK_WriteReg(R8, 0x00000000)  returns 0x00 (0000ms, 0360ms total)
T2D60 000:423 JLINK_WriteReg(R9, 0x20000160)  returns 0x00 (0000ms, 0360ms total)
T2D60 000:424 JLINK_WriteReg(R10, 0x00000000)  returns 0x00 (0000ms, 0361ms total)
T2D60 000:424 JLINK_WriteReg(R11, 0x00000000)  returns 0x00 (0000ms, 0361ms total)
T2D60 000:424 JLINK_WriteReg(R12, 0x00000000)  returns 0x00 (0000ms, 0361ms total)
T2D60 000:424 JLINK_WriteReg(R13, 0x20000800)  returns 0x00 (0000ms, 0361ms total)
T2D60 000:424 JLINK_WriteReg(R14, 0x20000001)  returns 0x00 (0000ms, 0361ms total)
T2D60 000:424 JLINK_WriteReg(R15, 0x20000038)  returns 0x00 (0000ms, 0361ms total)
T2D60 000:424 JLINK_WriteReg(XPSR, 0x01000000)  returns 0x00 (0000ms, 0361ms total)
T2D60 000:424 JLINK_WriteReg(MSP, 0x20000800)  returns 0x00 (0000ms, 0361ms total)
T2D60 000:424 JLINK_WriteReg(PSP, 0x20000800)  returns 0x00 (0000ms, 0361ms total)
T2D60 000:424 JLINK_WriteReg(CFBP, 0x00000000)  returns 0x00 (0000ms, 0361ms total)
T2D60 000:424 JLINK_SetBPEx(Addr = 0x20000000, Type = 0xFFFFFFF2) -- CPU_ReadMem(2 bytes @ 0x20000000)  returns 0x00000001 (0001ms, 0362ms total)
T2D60 000:425 JLINK_Go() -- CPU_WriteMem(2 bytes @ 0x20000000) -- CPU_WriteMem(4 bytes @ 0xE0002008) -- CPU_WriteMem(4 bytes @ 0xE000200C) -- CPU_WriteMem(4 bytes @ 0xE0002010) -- CPU_WriteMem(4 bytes @ 0xE0002014) -- CPU_WriteMem(4 bytes @ 0xE0002018) -- CPU_WriteMem(4 bytes @ 0xE000201C) (0010ms, 0372ms total)
T2D60 000:435 JLINK_IsHalted() -- CPU_ReadMem(2 bytes @ 0x20000000)  returns TRUE (0004ms, 0376ms total)
T2D60 000:439 JLINK_ReadReg(R15)  returns 0x20000000 (0000ms, 0372ms total)
T2D60 000:439 JLINK_ClrBPEx(BPHandle = 0x00000001)  returns 0x00 (0000ms, 0372ms total)
T2D60 000:439 JLINK_ReadReg(R0)  returns 0x00000000 (0000ms, 0372ms total)
T2D60 000:440 JLINK_WriteReg(R0, 0x08000000)  returns 0x00 (0000ms, 0372ms total)
T2D60 000:440 JLINK_WriteReg(R1, 0x007A1200)  returns 0x00 (0000ms, 0372ms total)
T2D60 000:440 JLINK_WriteReg(R2, 0x00000001)  returns 0x00 (0000ms, 0372ms total)
T2D60 000:440 JLINK_WriteReg(R3, 0x00000000)  returns 0x00 (0000ms, 0372ms total)
T2D60 000:440 JLINK_WriteReg(R4, 0x00000000)  returns 0x00 (0000ms, 0372ms total)
T2D60 000:440 JLINK_WriteReg(R5, 0x00000000)  returns 0x00 (0000ms, 0372ms total)
T2D60 000:440 JLINK_WriteReg(R6, 0x00000000)  returns 0x00 (0000ms, 0372ms total)
T2D60 000:440 JLINK_WriteReg(R7, 0x00000000)  returns 0x00 (0000ms, 0372ms total)
T2D60 000:440 JLINK_WriteReg(R8, 0x00000000)  returns 0x00 (0000ms, 0372ms total)
T2D60 000:440 JLINK_WriteReg(R9, 0x20000160)  returns 0x00 (0000ms, 0372ms total)
T2D60 000:440 JLINK_WriteReg(R10, 0x00000000)  returns 0x00 (0000ms, 0372ms total)
T2D60 000:440 JLINK_WriteReg(R11, 0x00000000)  returns 0x00 (0000ms, 0372ms total)
T2D60 000:440 JLINK_WriteReg(R12, 0x00000000)  returns 0x00 (0000ms, 0372ms total)
T2D60 000:440 JLINK_WriteReg(R13, 0x20000800)  returns 0x00 (0000ms, 0372ms total)
T2D60 000:440 JLINK_WriteReg(R14, 0x20000001)  returns 0x00 (0000ms, 0372ms total)
T2D60 000:440 JLINK_WriteReg(R15, 0x2000007C)  returns 0x00 (0000ms, 0372ms total)
T2D60 000:440 JLINK_WriteReg(XPSR, 0x01000000)  returns 0x00 (0000ms, 0372ms total)
T2D60 000:440 JLINK_WriteReg(MSP, 0x20000800)  returns 0x00 (0000ms, 0372ms total)
T2D60 000:440 JLINK_WriteReg(PSP, 0x20000800)  returns 0x00 (0000ms, 0372ms total)
T2D60 000:440 JLINK_WriteReg(CFBP, 0x00000000)  returns 0x00 (0000ms, 0372ms total)
T2D60 000:440 JLINK_SetBPEx(Addr = 0x20000000, Type = 0xFFFFFFF2)  returns 0x00000002 (0000ms, 0372ms total)
T2D60 000:440 JLINK_Go() -- CPU_WriteMem(4 bytes @ 0xE0002008) -- CPU_WriteMem(4 bytes @ 0xE000200C) -- CPU_WriteMem(4 bytes @ 0xE0002010) -- CPU_WriteMem(4 bytes @ 0xE0002014) -- CPU_WriteMem(4 bytes @ 0xE0002018) -- CPU_WriteMem(4 bytes @ 0xE000201C) (0008ms, 0380ms total)
T2D60 000:448 JLINK_IsHalted()  returns FALSE (0001ms, 0381ms total)
T2D60 000:499 JLINK_IsHalted() -- CPU_ReadMem(2 bytes @ 0x20000000)  returns TRUE (0003ms, 0383ms total)
T2D60 000:502 JLINK_ReadReg(R15)  returns 0x20000000 (0000ms, 0380ms total)
T2D60 000:502 JLINK_ClrBPEx(BPHandle = 0x00000002)  returns 0x00 (0000ms, 0380ms total)
T2D60 000:502 JLINK_ReadReg(R0)  returns 0x00000000 (0000ms, 0380ms total)
T2D60 000:554 JLINK_WriteReg(R0, 0x00000001)  returns 0x00 (0000ms, 0380ms total)
T2D60 000:554 JLINK_WriteReg(R1, 0x007A1200)  returns 0x00 (0000ms, 0380ms total)
T2D60 000:554 JLINK_WriteReg(R2, 0x00000001)  returns 0x00 (0000ms, 0380ms total)
T2D60 000:554 JLINK_WriteReg(R3, 0x00000000)  returns 0x00 (0000ms, 0380ms total)
T2D60 000:554 JLINK_WriteReg(R4, 0x00000000)  returns 0x00 (0000ms, 0380ms total)
T2D60 000:554 JLINK_WriteReg(R5, 0x00000000)  returns 0x00 (0001ms, 0381ms total)
T2D60 000:555 JLINK_WriteReg(R6, 0x00000000)  returns 0x00 (0000ms, 0381ms total)
T2D60 000:555 JLINK_WriteReg(R7, 0x00000000)  returns 0x00 (0000ms, 0381ms total)
T2D60 000:555 JLINK_WriteReg(R8, 0x00000000)  returns 0x00 (0000ms, 0381ms total)
T2D60 000:555 JLINK_WriteReg(R9, 0x20000160)  returns 0x00 (0000ms, 0381ms total)
T2D60 000:555 JLINK_WriteReg(R10, 0x00000000)  returns 0x00 (0000ms, 0381ms total)
T2D60 000:555 JLINK_WriteReg(R11, 0x00000000)  returns 0x00 (0000ms, 0381ms total)
T2D60 000:555 JLINK_WriteReg(R12, 0x00000000)  returns 0x00 (0000ms, 0381ms total)
T2D60 000:555 JLINK_WriteReg(R13, 0x20000800)  returns 0x00 (0000ms, 0381ms total)
T2D60 000:555 JLINK_WriteReg(R14, 0x20000001)  returns 0x00 (0000ms, 0381ms total)
T2D60 000:555 JLINK_WriteReg(R15, 0x2000006A)  returns 0x00 (0000ms, 0381ms total)
T2D60 000:555 JLINK_WriteReg(XPSR, 0x01000000)  returns 0x00 (0000ms, 0381ms total)
T2D60 000:555 JLINK_WriteReg(MSP, 0x20000800)  returns 0x00 (0000ms, 0381ms total)
T2D60 000:555 JLINK_WriteReg(PSP, 0x20000800)  returns 0x00 (0000ms, 0381ms total)
T2D60 000:556 JLINK_WriteReg(CFBP, 0x00000000)  returns 0x00 (0000ms, 0381ms total)
T2D60 000:556 JLINK_SetBPEx(Addr = 0x20000000, Type = 0xFFFFFFF2)  returns 0x00000003 (0000ms, 0381ms total)
T2D60 000:556 JLINK_Go() -- CPU_WriteMem(4 bytes @ 0xE0002008) -- CPU_WriteMem(4 bytes @ 0xE000200C) -- CPU_WriteMem(4 bytes @ 0xE0002010) -- CPU_WriteMem(4 bytes @ 0xE0002014) -- CPU_WriteMem(4 bytes @ 0xE0002018) -- CPU_WriteMem(4 bytes @ 0xE000201C) (0008ms, 0389ms total)
T2D60 000:564 JLINK_IsHalted() -- CPU_ReadMem(2 bytes @ 0x20000000)  returns TRUE (0004ms, 0393ms total)
T2D60 000:568 JLINK_ReadReg(R15)  returns 0x20000000 (0000ms, 0389ms total)
T2D60 000:568 JLINK_ClrBPEx(BPHandle = 0x00000003)  returns 0x00 (0000ms, 0389ms total)
T2D60 000:568 JLINK_ReadReg(R0)  returns 0x00000000 (0000ms, 0389ms total)
T2D60 000:578 JLINK_WriteMem(0x20000000, 0x0164 Bytes, ...) -- Data:  00 BE 0A E0 0D 78 2D 06 68 40 08 24 40 00 00 D3 ... -- CPU_WriteMem(356 bytes @ 0x20000000)  returns 0x164 (0003ms, 0392ms total)
T2D60 000:581 JLINK_WriteReg(R0, 0x08000000)  returns 0x00 (0000ms, 0392ms total)
T2D60 000:581 JLINK_WriteReg(R1, 0x007A1200)  returns 0x00 (0000ms, 0392ms total)
T2D60 000:581 JLINK_WriteReg(R2, 0x00000002)  returns 0x00 (0000ms, 0392ms total)
T2D60 000:581 JLINK_WriteReg(R3, 0x00000000)  returns 0x00 (0001ms, 0393ms total)
T2D60 000:582 JLINK_WriteReg(R4, 0x00000000)  returns 0x00 (0000ms, 0393ms total)
T2D60 000:582 JLINK_WriteReg(R5, 0x00000000)  returns 0x00 (0000ms, 0393ms total)
T2D60 000:582 JLINK_WriteReg(R6, 0x00000000)  returns 0x00 (0000ms, 0393ms total)
T2D60 000:582 JLINK_WriteReg(R7, 0x00000000)  returns 0x00 (0000ms, 0393ms total)
T2D60 000:582 JLINK_WriteReg(R8, 0x00000000)  returns 0x00 (0000ms, 0393ms total)
T2D60 000:582 JLINK_WriteReg(R9, 0x20000160)  returns 0x00 (0000ms, 0393ms total)
T2D60 000:582 JLINK_WriteReg(R10, 0x00000000)  returns 0x00 (0000ms, 0393ms total)
T2D60 000:582 JLINK_WriteReg(R11, 0x00000000)  returns 0x00 (0000ms, 0393ms total)
T2D60 000:582 JLINK_WriteReg(R12, 0x00000000)  returns 0x00 (0000ms, 0393ms total)
T2D60 000:582 JLINK_WriteReg(R13, 0x20000800)  returns 0x00 (0000ms, 0393ms total)
T2D60 000:582 JLINK_WriteReg(R14, 0x20000001)  returns 0x00 (0000ms, 0393ms total)
T2D60 000:582 JLINK_WriteReg(R15, 0x20000038)  returns 0x00 (0000ms, 0393ms total)
T2D60 000:582 JLINK_WriteReg(XPSR, 0x01000000)  returns 0x00 (0000ms, 0393ms total)
T2D60 000:582 JLINK_WriteReg(MSP, 0x20000800)  returns 0x00 (0000ms, 0393ms total)
T2D60 000:583 JLINK_WriteReg(PSP, 0x20000800)  returns 0x00 (0000ms, 0393ms total)
T2D60 000:583 JLINK_WriteReg(CFBP, 0x00000000)  returns 0x00 (0000ms, 0393ms total)
T2D60 000:583 JLINK_SetBPEx(Addr = 0x20000000, Type = 0xFFFFFFF2) -- CPU_ReadMem(2 bytes @ 0x20000000)  returns 0x00000004 (0001ms, 0394ms total)
T2D60 000:584 JLINK_Go() -- CPU_WriteMem(2 bytes @ 0x20000000) -- CPU_WriteMem(4 bytes @ 0xE0002008) -- CPU_WriteMem(4 bytes @ 0xE000200C) -- CPU_WriteMem(4 bytes @ 0xE0002010) -- CPU_WriteMem(4 bytes @ 0xE0002014) -- CPU_WriteMem(4 bytes @ 0xE0002018) -- CPU_WriteMem(4 bytes @ 0xE000201C) (0009ms, 0403ms total)
T2D60 000:593 JLINK_IsHalted() -- CPU_ReadMem(2 bytes @ 0x20000000)  returns TRUE (0004ms, 0407ms total)
T2D60 000:597 JLINK_ReadReg(R15)  returns 0x20000000 (0000ms, 0403ms total)
T2D60 000:597 JLINK_ClrBPEx(BPHandle = 0x00000004)  returns 0x00 (0000ms, 0403ms total)
T2D60 000:597 JLINK_ReadReg(R0)  returns 0x00000000 (0000ms, 0403ms total)
T2D60 000:598 JLINK_WriteMem(0x20000164, 0x0400 Bytes, ...) -- Data:  E8 AC 00 20 45 01 00 08 6B 61 00 08 79 40 00 08 ... -- CPU_WriteMem(1024 bytes @ 0x20000164)  returns 0x400 (0005ms, 0408ms total)
T2D60 000:603 JLINK_WriteReg(R0, 0x08000000)  returns 0x00 (0000ms, 0408ms total)
T2D60 000:603 JLINK_WriteReg(R1, 0x00000400)  returns 0x00 (0000ms, 0408ms total)
T2D60 000:603 JLINK_WriteReg(R2, 0x20000164)  returns 0x00 (0000ms, 0408ms total)
T2D60 000:603 JLINK_WriteReg(R3, 0x00000000)  returns 0x00 (0000ms, 0408ms total)
T2D60 000:604 JLINK_WriteReg(R4, 0x00000000)  returns 0x00 (0000ms, 0409ms total)
T2D60 000:604 JLINK_WriteReg(R5, 0x00000000)  returns 0x00 (0000ms, 0409ms total)
T2D60 000:604 JLINK_WriteReg(R6, 0x00000000)  returns 0x00 (0000ms, 0409ms total)
T2D60 000:604 JLINK_WriteReg(R7, 0x00000000)  returns 0x00 (0000ms, 0409ms total)
T2D60 000:604 JLINK_WriteReg(R8, 0x00000000)  returns 0x00 (0000ms, 0409ms total)
T2D60 000:604 JLINK_WriteReg(R9, 0x20000160)  returns 0x00 (0000ms, 0409ms total)
T2D60 000:604 JLINK_WriteReg(R10, 0x00000000)  returns 0x00 (0000ms, 0409ms total)
T2D60 000:604 JLINK_WriteReg(R11, 0x00000000)  returns 0x00 (0000ms, 0409ms total)
T2D60 000:604 JLINK_WriteReg(R12, 0x00000000)  returns 0x00 (0000ms, 0409ms total)
T2D60 000:604 JLINK_WriteReg(R13, 0x20000800)  returns 0x00 (0000ms, 0409ms total)
T2D60 000:604 JLINK_WriteReg(R14, 0x20000001)  returns 0x00 (0000ms, 0409ms total)
T2D60 000:604 JLINK_WriteReg(R15, 0x200000F4)  returns 0x00 (0000ms, 0409ms total)
T2D60 000:604 JLINK_WriteReg(XPSR, 0x01000000)  returns 0x00 (0000ms, 0409ms total)
T2D60 000:604 JLINK_WriteReg(MSP, 0x20000800)  returns 0x00 (0000ms, 0409ms total)
T2D60 000:604 JLINK_WriteReg(PSP, 0x20000800)  returns 0x00 (0001ms, 0410ms total)
T2D60 000:605 JLINK_WriteReg(CFBP, 0x00000000)  returns 0x00 (0000ms, 0410ms total)
T2D60 000:605 JLINK_SetBPEx(Addr = 0x20000000, Type = 0xFFFFFFF2)  returns 0x00000005 (0000ms, 0410ms total)
T2D60 000:605 JLINK_Go() -- CPU_WriteMem(4 bytes @ 0xE0002008) -- CPU_WriteMem(4 bytes @ 0xE000200C) -- CPU_WriteMem(4 bytes @ 0xE0002010) -- CPU_WriteMem(4 bytes @ 0xE0002014) -- CPU_WriteMem(4 bytes @ 0xE0002018) -- CPU_WriteMem(4 bytes @ 0xE000201C) (0008ms, 0418ms total)
T2D60 000:613 JLINK_IsHalted()  returns FALSE (0001ms, 0419ms total)
T2D60 000:664 JLINK_IsHalted() -- CPU_ReadMem(2 bytes @ 0x20000000)  returns TRUE (0003ms, 0421ms total)
T2D60 000:667 JLINK_ReadReg(R15)  returns 0x20000000 (0000ms, 0418ms total)
T2D60 000:667 JLINK_ClrBPEx(BPHandle = 0x00000005)  returns 0x00 (0000ms, 0418ms total)
T2D60 000:667 JLINK_ReadReg(R0)  returns 0x00000000 (0000ms, 0418ms total)
T2D60 000:668 JLINK_WriteMem(0x20000164, 0x0400 Bytes, ...) -- Data:  00 9A 01 2A 11 DC 00 22 80 1A 4F F0 00 43 61 EB ... -- CPU_WriteMem(1024 bytes @ 0x20000164)  returns 0x400 (0005ms, 0423ms total)
T2D60 000:673 JLINK_WriteReg(R0, 0x08000400)  returns 0x00 (0000ms, 0423ms total)
T2D60 000:673 JLINK_WriteReg(R1, 0x00000400)  returns 0x00 (0000ms, 0423ms total)
T2D60 000:673 JLINK_WriteReg(R2, 0x20000164)  returns 0x00 (0000ms, 0423ms total)
T2D60 000:673 JLINK_WriteReg(R3, 0x00000000)  returns 0x00 (0000ms, 0423ms total)
T2D60 000:673 JLINK_WriteReg(R4, 0x00000000)  returns 0x00 (0000ms, 0423ms total)
T2D60 000:673 JLINK_WriteReg(R5, 0x00000000)  returns 0x00 (0000ms, 0423ms total)
T2D60 000:673 JLINK_WriteReg(R6, 0x00000000)  returns 0x00 (0000ms, 0423ms total)
T2D60 000:673 JLINK_WriteReg(R7, 0x00000000)  returns 0x00 (0000ms, 0423ms total)
T2D60 000:673 JLINK_WriteReg(R8, 0x00000000)  returns 0x00 (0000ms, 0423ms total)
T2D60 000:673 JLINK_WriteReg(R9, 0x20000160)  returns 0x00 (0000ms, 0423ms total)
T2D60 000:673 JLINK_WriteReg(R10, 0x00000000)  returns 0x00 (0000ms, 0423ms total)
T2D60 000:673 JLINK_WriteReg(R11, 0x00000000)  returns 0x00 (0001ms, 0424ms total)
T2D60 000:674 JLINK_WriteReg(R12, 0x00000000)  returns 0x00 (0000ms, 0424ms total)
T2D60 000:674 JLINK_WriteReg(R13, 0x20000800)  returns 0x00 (0000ms, 0424ms total)
T2D60 000:674 JLINK_WriteReg(R14, 0x20000001)  returns 0x00 (0000ms, 0424ms total)
T2D60 000:674 JLINK_WriteReg(R15, 0x200000F4)  returns 0x00 (0000ms, 0424ms total)
T2D60 000:674 JLINK_WriteReg(XPSR, 0x01000000)  returns 0x00 (0000ms, 0424ms total)
T2D60 000:674 JLINK_WriteReg(MSP, 0x20000800)  returns 0x00 (0000ms, 0424ms total)
T2D60 000:674 JLINK_WriteReg(PSP, 0x20000800)  returns 0x00 (0000ms, 0424ms total)
T2D60 000:674 JLINK_WriteReg(CFBP, 0x00000000)  returns 0x00 (0000ms, 0424ms total)
T2D60 000:674 JLINK_SetBPEx(Addr = 0x20000000, Type = 0xFFFFFFF2)  returns 0x00000006 (0000ms, 0424ms total)
T2D60 000:674 JLINK_Go() -- CPU_WriteMem(4 bytes @ 0xE0002008) -- CPU_WriteMem(4 bytes @ 0xE000200C) -- CPU_WriteMem(4 bytes @ 0xE0002010) -- CPU_WriteMem(4 bytes @ 0xE0002014) -- CPU_WriteMem(4 bytes @ 0xE0002018) -- CPU_WriteMem(4 bytes @ 0xE000201C) (0008ms, 0432ms total)
T2D60 000:682 JLINK_IsHalted()  returns FALSE (0001ms, 0433ms total)
T2D60 000:733 JLINK_IsHalted() -- CPU_ReadMem(2 bytes @ 0x20000000)  returns TRUE (0004ms, 0436ms total)
T2D60 000:737 JLINK_ReadReg(R15)  returns 0x20000000 (0000ms, 0432ms total)
T2D60 000:737 JLINK_ClrBPEx(BPHandle = 0x00000006)  returns 0x00 (0000ms, 0432ms total)
T2D60 000:737 JLINK_ReadReg(R0)  returns 0x00000000 (0000ms, 0432ms total)
T2D60 000:738 JLINK_WriteMem(0x20000164, 0x0400 Bytes, ...) -- Data:  70 47 00 29 A8 BF 70 47 40 1C 49 00 08 BF 20 F0 ... -- CPU_WriteMem(1024 bytes @ 0x20000164)  returns 0x400 (0005ms, 0437ms total)
T2D60 000:743 JLINK_WriteReg(R0, 0x08000800)  returns 0x00 (0000ms, 0437ms total)
T2D60 000:743 JLINK_WriteReg(R1, 0x00000400)  returns 0x00 (0000ms, 0437ms total)
T2D60 000:743 JLINK_WriteReg(R2, 0x20000164)  returns 0x00 (0000ms, 0437ms total)
T2D60 000:743 JLINK_WriteReg(R3, 0x00000000)  returns 0x00 (0000ms, 0437ms total)
T2D60 000:743 JLINK_WriteReg(R4, 0x00000000)  returns 0x00 (0001ms, 0438ms total)
T2D60 000:744 JLINK_WriteReg(R5, 0x00000000)  returns 0x00 (0000ms, 0438ms total)
T2D60 000:744 JLINK_WriteReg(R6, 0x00000000)  returns 0x00 (0000ms, 0438ms total)
T2D60 000:744 JLINK_WriteReg(R7, 0x00000000)  returns 0x00 (0000ms, 0438ms total)
T2D60 000:744 JLINK_WriteReg(R8, 0x00000000)  returns 0x00 (0000ms, 0438ms total)
T2D60 000:744 JLINK_WriteReg(R9, 0x20000160)  returns 0x00 (0000ms, 0438ms total)
T2D60 000:744 JLINK_WriteReg(R10, 0x00000000)  returns 0x00 (0000ms, 0438ms total)
T2D60 000:744 JLINK_WriteReg(R11, 0x00000000)  returns 0x00 (0000ms, 0438ms total)
T2D60 000:744 JLINK_WriteReg(R12, 0x00000000)  returns 0x00 (0000ms, 0438ms total)
T2D60 000:744 JLINK_WriteReg(R13, 0x20000800)  returns 0x00 (0000ms, 0438ms total)
T2D60 000:744 JLINK_WriteReg(R14, 0x20000001)  returns 0x00 (0000ms, 0438ms total)
T2D60 000:744 JLINK_WriteReg(R15, 0x200000F4)  returns 0x00 (0000ms, 0438ms total)
T2D60 000:744 JLINK_WriteReg(XPSR, 0x01000000)  returns 0x00 (0000ms, 0438ms total)
T2D60 000:744 JLINK_WriteReg(MSP, 0x20000800)  returns 0x00 (0000ms, 0438ms total)
T2D60 000:744 JLINK_WriteReg(PSP, 0x20000800)  returns 0x00 (0001ms, 0439ms total)
T2D60 000:745 JLINK_WriteReg(CFBP, 0x00000000)  returns 0x00 (0000ms, 0439ms total)
T2D60 000:745 JLINK_SetBPEx(Addr = 0x20000000, Type = 0xFFFFFFF2)  returns 0x00000007 (0000ms, 0439ms total)
T2D60 000:745 JLINK_Go() -- CPU_WriteMem(4 bytes @ 0xE0002008) -- CPU_WriteMem(4 bytes @ 0xE000200C) -- CPU_WriteMem(4 bytes @ 0xE0002010) -- CPU_WriteMem(4 bytes @ 0xE0002014) -- CPU_WriteMem(4 bytes @ 0xE0002018) -- CPU_WriteMem(4 bytes @ 0xE000201C) (0008ms, 0447ms total)
T2D60 000:753 JLINK_IsHalted()  returns FALSE (0001ms, 0448ms total)
T2D60 000:804 JLINK_IsHalted() -- CPU_ReadMem(2 bytes @ 0x20000000)  returns TRUE (0004ms, 0451ms total)
T2D60 000:808 JLINK_ReadReg(R15)  returns 0x20000000 (0000ms, 0447ms total)
T2D60 000:808 JLINK_ClrBPEx(BPHandle = 0x00000007)  returns 0x00 (0000ms, 0447ms total)
T2D60 000:808 JLINK_ReadReg(R0)  returns 0x00000000 (0000ms, 0447ms total)
T2D60 000:809 JLINK_WriteMem(0x20000164, 0x0400 Bytes, ...) -- Data:  00 88 38 49 89 1E 08 80 07 F0 66 FA 06 F0 3A FB ... -- CPU_WriteMem(1024 bytes @ 0x20000164)  returns 0x400 (0005ms, 0452ms total)
T2D60 000:814 JLINK_WriteReg(R0, 0x08000C00)  returns 0x00 (0000ms, 0452ms total)
T2D60 000:814 JLINK_WriteReg(R1, 0x00000400)  returns 0x00 (0000ms, 0452ms total)
T2D60 000:814 JLINK_WriteReg(R2, 0x20000164)  returns 0x00 (0000ms, 0452ms total)
T2D60 000:814 JLINK_WriteReg(R3, 0x00000000)  returns 0x00 (0000ms, 0452ms total)
T2D60 000:815 JLINK_WriteReg(R4, 0x00000000)  returns 0x00 (0000ms, 0452ms total)
T2D60 000:815 JLINK_WriteReg(R5, 0x00000000)  returns 0x00 (0000ms, 0452ms total)
T2D60 000:815 JLINK_WriteReg(R6, 0x00000000)  returns 0x00 (0000ms, 0452ms total)
T2D60 000:815 JLINK_WriteReg(R7, 0x00000000)  returns 0x00 (0000ms, 0452ms total)
T2D60 000:815 JLINK_WriteReg(R8, 0x00000000)  returns 0x00 (0000ms, 0452ms total)
T2D60 000:815 JLINK_WriteReg(R9, 0x20000160)  returns 0x00 (0000ms, 0452ms total)
T2D60 000:815 JLINK_WriteReg(R10, 0x00000000)  returns 0x00 (0000ms, 0452ms total)
T2D60 000:815 JLINK_WriteReg(R11, 0x00000000)  returns 0x00 (0000ms, 0452ms total)
T2D60 000:815 JLINK_WriteReg(R12, 0x00000000)  returns 0x00 (0000ms, 0452ms total)
T2D60 000:815 JLINK_WriteReg(R13, 0x20000800)  returns 0x00 (0000ms, 0452ms total)
T2D60 000:815 JLINK_WriteReg(R14, 0x20000001)  returns 0x00 (0000ms, 0452ms total)
T2D60 000:815 JLINK_WriteReg(R15, 0x200000F4)  returns 0x00 (0000ms, 0452ms total)
T2D60 000:815 JLINK_WriteReg(XPSR, 0x01000000)  returns 0x00 (0000ms, 0452ms total)
T2D60 000:815 JLINK_WriteReg(MSP, 0x20000800)  returns 0x00 (0001ms, 0453ms total)
T2D60 000:816 JLINK_WriteReg(PSP, 0x20000800)  returns 0x00 (0000ms, 0453ms total)
T2D60 000:816 JLINK_WriteReg(CFBP, 0x00000000)  returns 0x00 (0000ms, 0453ms total)
T2D60 000:816 JLINK_SetBPEx(Addr = 0x20000000, Type = 0xFFFFFFF2)  returns 0x00000008 (0000ms, 0453ms total)
T2D60 000:816 JLINK_Go() -- CPU_WriteMem(4 bytes @ 0xE0002008) -- CPU_WriteMem(4 bytes @ 0xE000200C) -- CPU_WriteMem(4 bytes @ 0xE0002010) -- CPU_WriteMem(4 bytes @ 0xE0002014) -- CPU_WriteMem(4 bytes @ 0xE0002018) -- CPU_WriteMem(4 bytes @ 0xE000201C) (0008ms, 0461ms total)
T2D60 000:824 JLINK_IsHalted()  returns FALSE (0001ms, 0462ms total)
T2D60 000:875 JLINK_IsHalted() -- CPU_ReadMem(2 bytes @ 0x20000000)  returns TRUE (0004ms, 0465ms total)
T2D60 000:879 JLINK_ReadReg(R15)  returns 0x20000000 (0000ms, 0461ms total)
T2D60 000:879 JLINK_ClrBPEx(BPHandle = 0x00000008)  returns 0x00 (0000ms, 0461ms total)
T2D60 000:879 JLINK_ReadReg(R0)  returns 0x00000000 (0000ms, 0461ms total)
T2D60 000:880 JLINK_WriteMem(0x20000164, 0x0400 Bytes, ...) -- Data:  05 10 FF F7 E4 F8 01 90 02 99 FF F7 38 F9 4F F0 ... -- CPU_WriteMem(1024 bytes @ 0x20000164)  returns 0x400 (0004ms, 0465ms total)
T2D60 000:884 JLINK_WriteReg(R0, 0x08001000)  returns 0x00 (0000ms, 0465ms total)
T2D60 000:884 JLINK_WriteReg(R1, 0x00000400)  returns 0x00 (0000ms, 0465ms total)
T2D60 000:884 JLINK_WriteReg(R2, 0x20000164)  returns 0x00 (0000ms, 0465ms total)
T2D60 000:884 JLINK_WriteReg(R3, 0x00000000)  returns 0x00 (0000ms, 0465ms total)
T2D60 000:884 JLINK_WriteReg(R4, 0x00000000)  returns 0x00 (0000ms, 0465ms total)
T2D60 000:884 JLINK_WriteReg(R5, 0x00000000)  returns 0x00 (0000ms, 0465ms total)
T2D60 000:884 JLINK_WriteReg(R6, 0x00000000)  returns 0x00 (0000ms, 0465ms total)
T2D60 000:884 JLINK_WriteReg(R7, 0x00000000)  returns 0x00 (0000ms, 0465ms total)
T2D60 000:884 JLINK_WriteReg(R8, 0x00000000)  returns 0x00 (0000ms, 0465ms total)
T2D60 000:884 JLINK_WriteReg(R9, 0x20000160)  returns 0x00 (0000ms, 0465ms total)
T2D60 000:884 JLINK_WriteReg(R10, 0x00000000)  returns 0x00 (0001ms, 0466ms total)
T2D60 000:885 JLINK_WriteReg(R11, 0x00000000)  returns 0x00 (0000ms, 0466ms total)
T2D60 000:885 JLINK_WriteReg(R12, 0x00000000)  returns 0x00 (0000ms, 0466ms total)
T2D60 000:885 JLINK_WriteReg(R13, 0x20000800)  returns 0x00 (0000ms, 0466ms total)
T2D60 000:885 JLINK_WriteReg(R14, 0x20000001)  returns 0x00 (0000ms, 0466ms total)
T2D60 000:885 JLINK_WriteReg(R15, 0x200000F4)  returns 0x00 (0000ms, 0466ms total)
T2D60 000:885 JLINK_WriteReg(XPSR, 0x01000000)  returns 0x00 (0000ms, 0466ms total)
T2D60 000:885 JLINK_WriteReg(MSP, 0x20000800)  returns 0x00 (0000ms, 0466ms total)
T2D60 000:885 JLINK_WriteReg(PSP, 0x20000800)  returns 0x00 (0000ms, 0466ms total)
T2D60 000:885 JLINK_WriteReg(CFBP, 0x00000000)  returns 0x00 (0000ms, 0466ms total)
T2D60 000:885 JLINK_SetBPEx(Addr = 0x20000000, Type = 0xFFFFFFF2)  returns 0x00000009 (0000ms, 0466ms total)
T2D60 000:885 JLINK_Go() -- CPU_WriteMem(4 bytes @ 0xE0002008) -- CPU_WriteMem(4 bytes @ 0xE000200C) -- CPU_WriteMem(4 bytes @ 0xE0002010) -- CPU_WriteMem(4 bytes @ 0xE0002014) -- CPU_WriteMem(4 bytes @ 0xE0002018) -- CPU_WriteMem(4 bytes @ 0xE000201C) (0008ms, 0474ms total)
T2D60 000:893 JLINK_IsHalted()  returns FALSE (0001ms, 0475ms total)
T2D60 000:944 JLINK_IsHalted() -- CPU_ReadMem(2 bytes @ 0x20000000)  returns TRUE (0004ms, 0478ms total)
T2D60 000:948 JLINK_ReadReg(R15)  returns 0x20000000 (0000ms, 0474ms total)
T2D60 000:948 JLINK_ClrBPEx(BPHandle = 0x00000009)  returns 0x00 (0000ms, 0474ms total)
T2D60 000:948 JLINK_ReadReg(R0)  returns 0x00000000 (0000ms, 0474ms total)
T2D60 000:949 JLINK_WriteMem(0x20000164, 0x0400 Bytes, ...) -- Data:  01 F0 4A FA C8 E7 40 F6 F8 20 14 23 F0 22 00 21 ... -- CPU_WriteMem(1024 bytes @ 0x20000164)  returns 0x400 (0005ms, 0479ms total)
T2D60 000:954 JLINK_WriteReg(R0, 0x08001400)  returns 0x00 (0000ms, 0479ms total)
T2D60 000:954 JLINK_WriteReg(R1, 0x00000400)  returns 0x00 (0000ms, 0479ms total)
T2D60 000:954 JLINK_WriteReg(R2, 0x20000164)  returns 0x00 (0000ms, 0479ms total)
T2D60 000:954 JLINK_WriteReg(R3, 0x00000000)  returns 0x00 (0000ms, 0479ms total)
T2D60 000:954 JLINK_WriteReg(R4, 0x00000000)  returns 0x00 (0001ms, 0480ms total)
T2D60 000:955 JLINK_WriteReg(R5, 0x00000000)  returns 0x00 (0000ms, 0480ms total)
T2D60 000:955 JLINK_WriteReg(R6, 0x00000000)  returns 0x00 (0000ms, 0480ms total)
T2D60 000:955 JLINK_WriteReg(R7, 0x00000000)  returns 0x00 (0000ms, 0480ms total)
T2D60 000:955 JLINK_WriteReg(R8, 0x00000000)  returns 0x00 (0000ms, 0480ms total)
T2D60 000:955 JLINK_WriteReg(R9, 0x20000160)  returns 0x00 (0000ms, 0480ms total)
T2D60 000:955 JLINK_WriteReg(R10, 0x00000000)  returns 0x00 (0000ms, 0480ms total)
T2D60 000:955 JLINK_WriteReg(R11, 0x00000000)  returns 0x00 (0000ms, 0480ms total)
T2D60 000:955 JLINK_WriteReg(R12, 0x00000000)  returns 0x00 (0000ms, 0480ms total)
T2D60 000:955 JLINK_WriteReg(R13, 0x20000800)  returns 0x00 (0000ms, 0480ms total)
T2D60 000:955 JLINK_WriteReg(R14, 0x20000001)  returns 0x00 (0000ms, 0480ms total)
T2D60 000:955 JLINK_WriteReg(R15, 0x200000F4)  returns 0x00 (0000ms, 0480ms total)
T2D60 000:955 JLINK_WriteReg(XPSR, 0x01000000)  returns 0x00 (0001ms, 0481ms total)
T2D60 000:956 JLINK_WriteReg(MSP, 0x20000800)  returns 0x00 (0000ms, 0481ms total)
T2D60 000:956 JLINK_WriteReg(PSP, 0x20000800)  returns 0x00 (0000ms, 0481ms total)
T2D60 000:956 JLINK_WriteReg(CFBP, 0x00000000)  returns 0x00 (0000ms, 0481ms total)
T2D60 000:956 JLINK_SetBPEx(Addr = 0x20000000, Type = 0xFFFFFFF2)  returns 0x0000000A (0000ms, 0481ms total)
T2D60 000:956 JLINK_Go() -- CPU_WriteMem(4 bytes @ 0xE0002008) -- CPU_WriteMem(4 bytes @ 0xE000200C) -- CPU_WriteMem(4 bytes @ 0xE0002010) -- CPU_WriteMem(4 bytes @ 0xE0002014) -- CPU_WriteMem(4 bytes @ 0xE0002018) -- CPU_WriteMem(4 bytes @ 0xE000201C) (0008ms, 0489ms total)
T2D60 000:964 JLINK_IsHalted()  returns FALSE (0001ms, 0490ms total)
T2D60 001:015 JLINK_IsHalted() -- CPU_ReadMem(2 bytes @ 0x20000000)  returns TRUE (0005ms, 0494ms total)
T2D60 001:020 JLINK_ReadReg(R15)  returns 0x20000000 (0000ms, 0489ms total)
T2D60 001:020 JLINK_ClrBPEx(BPHandle = 0x0000000A)  returns 0x00 (0000ms, 0489ms total)
T2D60 001:020 JLINK_ReadReg(R0)  returns 0x00000000 (0000ms, 0489ms total)
T2D60 001:021 JLINK_WriteMem(0x20000164, 0x0400 Bytes, ...) -- Data:  EC 29 00 20 00 5C 00 40 00 2A 00 20 02 2A 00 20 ... -- CPU_WriteMem(1024 bytes @ 0x20000164)  returns 0x400 (0004ms, 0493ms total)
T2D60 001:025 JLINK_WriteReg(R0, 0x08001800)  returns 0x00 (0000ms, 0493ms total)
T2D60 001:025 JLINK_WriteReg(R1, 0x00000400)  returns 0x00 (0000ms, 0493ms total)
T2D60 001:025 JLINK_WriteReg(R2, 0x20000164)  returns 0x00 (0000ms, 0493ms total)
T2D60 001:025 JLINK_WriteReg(R3, 0x00000000)  returns 0x00 (0000ms, 0493ms total)
T2D60 001:025 JLINK_WriteReg(R4, 0x00000000)  returns 0x00 (0000ms, 0493ms total)
T2D60 001:025 JLINK_WriteReg(R5, 0x00000000)  returns 0x00 (0000ms, 0493ms total)
T2D60 001:025 JLINK_WriteReg(R6, 0x00000000)  returns 0x00 (0000ms, 0493ms total)
T2D60 001:025 JLINK_WriteReg(R7, 0x00000000)  returns 0x00 (0000ms, 0493ms total)
T2D60 001:025 JLINK_WriteReg(R8, 0x00000000)  returns 0x00 (0000ms, 0493ms total)
T2D60 001:025 JLINK_WriteReg(R9, 0x20000160)  returns 0x00 (0000ms, 0493ms total)
T2D60 001:025 JLINK_WriteReg(R10, 0x00000000)  returns 0x00 (0001ms, 0494ms total)
T2D60 001:026 JLINK_WriteReg(R11, 0x00000000)  returns 0x00 (0000ms, 0494ms total)
T2D60 001:026 JLINK_WriteReg(R12, 0x00000000)  returns 0x00 (0000ms, 0494ms total)
T2D60 001:026 JLINK_WriteReg(R13, 0x20000800)  returns 0x00 (0000ms, 0494ms total)
T2D60 001:026 JLINK_WriteReg(R14, 0x20000001)  returns 0x00 (0000ms, 0494ms total)
T2D60 001:026 JLINK_WriteReg(R15, 0x200000F4)  returns 0x00 (0000ms, 0494ms total)
T2D60 001:026 JLINK_WriteReg(XPSR, 0x01000000)  returns 0x00 (0000ms, 0494ms total)
T2D60 001:026 JLINK_WriteReg(MSP, 0x20000800)  returns 0x00 (0000ms, 0494ms total)
T2D60 001:026 JLINK_WriteReg(PSP, 0x20000800)  returns 0x00 (0000ms, 0494ms total)
T2D60 001:026 JLINK_WriteReg(CFBP, 0x00000000)  returns 0x00 (0000ms, 0494ms total)
T2D60 001:026 JLINK_SetBPEx(Addr = 0x20000000, Type = 0xFFFFFFF2)  returns 0x0000000B (0000ms, 0494ms total)
T2D60 001:026 JLINK_Go() -- CPU_WriteMem(4 bytes @ 0xE0002008) -- CPU_WriteMem(4 bytes @ 0xE000200C) -- CPU_WriteMem(4 bytes @ 0xE0002010) -- CPU_WriteMem(4 bytes @ 0xE0002014) -- CPU_WriteMem(4 bytes @ 0xE0002018) -- CPU_WriteMem(4 bytes @ 0xE000201C) (0008ms, 0502ms total)
T2D60 001:034 JLINK_IsHalted()  returns FALSE (0001ms, 0503ms total)
T2D60 001:085 JLINK_IsHalted() -- CPU_ReadMem(2 bytes @ 0x20000000)  returns TRUE (0004ms, 0506ms total)
T2D60 001:089 JLINK_ReadReg(R15)  returns 0x20000000 (0000ms, 0502ms total)
T2D60 001:089 JLINK_ClrBPEx(BPHandle = 0x0000000B)  returns 0x00 (0000ms, 0502ms total)
T2D60 001:089 JLINK_ReadReg(R0)  returns 0x00000000 (0000ms, 0502ms total)
T2D60 001:090 JLINK_WriteMem(0x20000164, 0x0400 Bytes, ...) -- Data:  0B E0 33 F8 11 70 4E 1C 33 F8 16 60 B7 42 01 DA ... -- CPU_WriteMem(1024 bytes @ 0x20000164)  returns 0x400 (0005ms, 0507ms total)
T2D60 001:095 JLINK_WriteReg(R0, 0x08001C00)  returns 0x00 (0000ms, 0507ms total)
T2D60 001:095 JLINK_WriteReg(R1, 0x00000400)  returns 0x00 (0000ms, 0507ms total)
T2D60 001:095 JLINK_WriteReg(R2, 0x20000164)  returns 0x00 (0000ms, 0507ms total)
T2D60 001:095 JLINK_WriteReg(R3, 0x00000000)  returns 0x00 (0000ms, 0507ms total)
T2D60 001:095 JLINK_WriteReg(R4, 0x00000000)  returns 0x00 (0001ms, 0508ms total)
T2D60 001:096 JLINK_WriteReg(R5, 0x00000000)  returns 0x00 (0000ms, 0508ms total)
T2D60 001:096 JLINK_WriteReg(R6, 0x00000000)  returns 0x00 (0000ms, 0508ms total)
T2D60 001:096 JLINK_WriteReg(R7, 0x00000000)  returns 0x00 (0000ms, 0508ms total)
T2D60 001:096 JLINK_WriteReg(R8, 0x00000000)  returns 0x00 (0000ms, 0508ms total)
T2D60 001:096 JLINK_WriteReg(R9, 0x20000160)  returns 0x00 (0000ms, 0508ms total)
T2D60 001:096 JLINK_WriteReg(R10, 0x00000000)  returns 0x00 (0000ms, 0508ms total)
T2D60 001:096 JLINK_WriteReg(R11, 0x00000000)  returns 0x00 (0000ms, 0508ms total)
T2D60 001:096 JLINK_WriteReg(R12, 0x00000000)  returns 0x00 (0000ms, 0508ms total)
T2D60 001:096 JLINK_WriteReg(R13, 0x20000800)  returns 0x00 (0000ms, 0508ms total)
T2D60 001:096 JLINK_WriteReg(R14, 0x20000001)  returns 0x00 (0000ms, 0508ms total)
T2D60 001:096 JLINK_WriteReg(R15, 0x200000F4)  returns 0x00 (0000ms, 0508ms total)
T2D60 001:096 JLINK_WriteReg(XPSR, 0x01000000)  returns 0x00 (0000ms, 0508ms total)
T2D60 001:096 JLINK_WriteReg(MSP, 0x20000800)  returns 0x00 (0000ms, 0508ms total)
T2D60 001:096 JLINK_WriteReg(PSP, 0x20000800)  returns 0x00 (0001ms, 0509ms total)
T2D60 001:097 JLINK_WriteReg(CFBP, 0x00000000)  returns 0x00 (0000ms, 0509ms total)
T2D60 001:097 JLINK_SetBPEx(Addr = 0x20000000, Type = 0xFFFFFFF2)  returns 0x0000000C (0000ms, 0509ms total)
T2D60 001:097 JLINK_Go() -- CPU_WriteMem(4 bytes @ 0xE0002008) -- CPU_WriteMem(4 bytes @ 0xE000200C) -- CPU_WriteMem(4 bytes @ 0xE0002010) -- CPU_WriteMem(4 bytes @ 0xE0002014) -- CPU_WriteMem(4 bytes @ 0xE0002018) -- CPU_WriteMem(4 bytes @ 0xE000201C) (0008ms, 0517ms total)
T2D60 001:105 JLINK_IsHalted()  returns FALSE (0001ms, 0518ms total)
T2D60 001:156 JLINK_IsHalted() -- CPU_ReadMem(2 bytes @ 0x20000000)  returns TRUE (0003ms, 0520ms total)
T2D60 001:159 JLINK_ReadReg(R15)  returns 0x20000000 (0000ms, 0517ms total)
T2D60 001:159 JLINK_ClrBPEx(BPHandle = 0x0000000C)  returns 0x00 (0000ms, 0517ms total)
T2D60 001:159 JLINK_ReadReg(R0)  returns 0x00000000 (0000ms, 0517ms total)
T2D60 001:160 JLINK_WriteMem(0x20000164, 0x0400 Bytes, ...) -- Data:  5B D1 84 48 00 68 C0 88 02 28 56 D1 81 48 00 68 ... -- CPU_WriteMem(1024 bytes @ 0x20000164)  returns 0x400 (0005ms, 0522ms total)
T2D60 001:165 JLINK_WriteReg(R0, 0x08002000)  returns 0x00 (0000ms, 0522ms total)
T2D60 001:165 JLINK_WriteReg(R1, 0x00000400)  returns 0x00 (0000ms, 0522ms total)
T2D60 001:165 JLINK_WriteReg(R2, 0x20000164)  returns 0x00 (0000ms, 0522ms total)
T2D60 001:165 JLINK_WriteReg(R3, 0x00000000)  returns 0x00 (0000ms, 0522ms total)
T2D60 001:165 JLINK_WriteReg(R4, 0x00000000)  returns 0x00 (0000ms, 0522ms total)
T2D60 001:165 JLINK_WriteReg(R5, 0x00000000)  returns 0x00 (0000ms, 0522ms total)
T2D60 001:165 JLINK_WriteReg(R6, 0x00000000)  returns 0x00 (0000ms, 0522ms total)
T2D60 001:165 JLINK_WriteReg(R7, 0x00000000)  returns 0x00 (0000ms, 0522ms total)
T2D60 001:165 JLINK_WriteReg(R8, 0x00000000)  returns 0x00 (0000ms, 0522ms total)
T2D60 001:165 JLINK_WriteReg(R9, 0x20000160)  returns 0x00 (0001ms, 0523ms total)
T2D60 001:166 JLINK_WriteReg(R10, 0x00000000)  returns 0x00 (0000ms, 0523ms total)
T2D60 001:166 JLINK_WriteReg(R11, 0x00000000)  returns 0x00 (0000ms, 0523ms total)
T2D60 001:166 JLINK_WriteReg(R12, 0x00000000)  returns 0x00 (0000ms, 0523ms total)
T2D60 001:166 JLINK_WriteReg(R13, 0x20000800)  returns 0x00 (0000ms, 0523ms total)
T2D60 001:166 JLINK_WriteReg(R14, 0x20000001)  returns 0x00 (0000ms, 0523ms total)
T2D60 001:166 JLINK_WriteReg(R15, 0x200000F4)  returns 0x00 (0000ms, 0523ms total)
T2D60 001:166 JLINK_WriteReg(XPSR, 0x01000000)  returns 0x00 (0000ms, 0523ms total)
T2D60 001:166 JLINK_WriteReg(MSP, 0x20000800)  returns 0x00 (0000ms, 0523ms total)
T2D60 001:166 JLINK_WriteReg(PSP, 0x20000800)  returns 0x00 (0000ms, 0523ms total)
T2D60 001:166 JLINK_WriteReg(CFBP, 0x00000000)  returns 0x00 (0000ms, 0523ms total)
T2D60 001:166 JLINK_SetBPEx(Addr = 0x20000000, Type = 0xFFFFFFF2)  returns 0x0000000D (0000ms, 0523ms total)
T2D60 001:166 JLINK_Go() -- CPU_WriteMem(4 bytes @ 0xE0002008) -- CPU_WriteMem(4 bytes @ 0xE000200C) -- CPU_WriteMem(4 bytes @ 0xE0002010) -- CPU_WriteMem(4 bytes @ 0xE0002014) -- CPU_WriteMem(4 bytes @ 0xE0002018) -- CPU_WriteMem(4 bytes @ 0xE000201C) (0008ms, 0531ms total)
T2D60 001:174 JLINK_IsHalted()  returns FALSE (0001ms, 0532ms total)
T2D60 001:225 JLINK_IsHalted() -- CPU_ReadMem(2 bytes @ 0x20000000)  returns TRUE (0003ms, 0534ms total)
T2D60 001:228 JLINK_ReadReg(R15)  returns 0x20000000 (0000ms, 0531ms total)
T2D60 001:228 JLINK_ClrBPEx(BPHandle = 0x0000000D)  returns 0x00 (0000ms, 0531ms total)
T2D60 001:228 JLINK_ReadReg(R0)  returns 0x00000000 (0000ms, 0531ms total)
T2D60 001:229 JLINK_WriteMem(0x20000164, 0x0400 Bytes, ...) -- Data:  FD F7 CB FE 06 F0 1C FF 05 F0 66 FB 05 F0 D0 FF ... -- CPU_WriteMem(1024 bytes @ 0x20000164)  returns 0x400 (0004ms, 0535ms total)
T2D60 001:233 JLINK_WriteReg(R0, 0x08002400)  returns 0x00 (0000ms, 0535ms total)
T2D60 001:233 JLINK_WriteReg(R1, 0x00000400)  returns 0x00 (0000ms, 0535ms total)
T2D60 001:233 JLINK_WriteReg(R2, 0x20000164)  returns 0x00 (0000ms, 0535ms total)
T2D60 001:233 JLINK_WriteReg(R3, 0x00000000)  returns 0x00 (0000ms, 0535ms total)
T2D60 001:233 JLINK_WriteReg(R4, 0x00000000)  returns 0x00 (0000ms, 0535ms total)
T2D60 001:233 JLINK_WriteReg(R5, 0x00000000)  returns 0x00 (0000ms, 0535ms total)
T2D60 001:233 JLINK_WriteReg(R6, 0x00000000)  returns 0x00 (0000ms, 0535ms total)
T2D60 001:233 JLINK_WriteReg(R7, 0x00000000)  returns 0x00 (0000ms, 0535ms total)
T2D60 001:233 JLINK_WriteReg(R8, 0x00000000)  returns 0x00 (0000ms, 0535ms total)
T2D60 001:233 JLINK_WriteReg(R9, 0x20000160)  returns 0x00 (0000ms, 0535ms total)
T2D60 001:233 JLINK_WriteReg(R10, 0x00000000)  returns 0x00 (0000ms, 0535ms total)
T2D60 001:233 JLINK_WriteReg(R11, 0x00000000)  returns 0x00 (0000ms, 0535ms total)
T2D60 001:233 JLINK_WriteReg(R12, 0x00000000)  returns 0x00 (0001ms, 0536ms total)
T2D60 001:234 JLINK_WriteReg(R13, 0x20000800)  returns 0x00 (0000ms, 0536ms total)
T2D60 001:234 JLINK_WriteReg(R14, 0x20000001)  returns 0x00 (0000ms, 0536ms total)
T2D60 001:234 JLINK_WriteReg(R15, 0x200000F4)  returns 0x00 (0000ms, 0536ms total)
T2D60 001:234 JLINK_WriteReg(XPSR, 0x01000000)  returns 0x00 (0000ms, 0536ms total)
T2D60 001:234 JLINK_WriteReg(MSP, 0x20000800)  returns 0x00 (0000ms, 0536ms total)
T2D60 001:234 JLINK_WriteReg(PSP, 0x20000800)  returns 0x00 (0000ms, 0536ms total)
T2D60 001:234 JLINK_WriteReg(CFBP, 0x00000000)  returns 0x00 (0000ms, 0536ms total)
T2D60 001:234 JLINK_SetBPEx(Addr = 0x20000000, Type = 0xFFFFFFF2)  returns 0x0000000E (0000ms, 0536ms total)
T2D60 001:234 JLINK_Go() -- CPU_WriteMem(4 bytes @ 0xE0002008) -- CPU_WriteMem(4 bytes @ 0xE000200C) -- CPU_WriteMem(4 bytes @ 0xE0002010) -- CPU_WriteMem(4 bytes @ 0xE0002014) -- CPU_WriteMem(4 bytes @ 0xE0002018) -- CPU_WriteMem(4 bytes @ 0xE000201C) (0008ms, 0544ms total)
T2D60 001:242 JLINK_IsHalted()  returns FALSE (0001ms, 0545ms total)
T2D60 001:293 JLINK_IsHalted() -- CPU_ReadMem(2 bytes @ 0x20000000)  returns TRUE (0003ms, 0547ms total)
T2D60 001:296 JLINK_ReadReg(R15)  returns 0x20000000 (0000ms, 0544ms total)
T2D60 001:296 JLINK_ClrBPEx(BPHandle = 0x0000000E)  returns 0x00 (0000ms, 0544ms total)
T2D60 001:296 JLINK_ReadReg(R0)  returns 0x00000000 (0000ms, 0544ms total)
T2D60 001:297 JLINK_WriteMem(0x20000164, 0x0400 Bytes, ...) -- Data:  52 46 00 F0 DF F8 7A 19 91 B2 32 19 90 B2 52 46 ... -- CPU_WriteMem(1024 bytes @ 0x20000164)  returns 0x400 (0005ms, 0549ms total)
T2D60 001:302 JLINK_WriteReg(R0, 0x08002800)  returns 0x00 (0000ms, 0549ms total)
T2D60 001:302 JLINK_WriteReg(R1, 0x00000400)  returns 0x00 (0000ms, 0549ms total)
T2D60 001:302 JLINK_WriteReg(R2, 0x20000164)  returns 0x00 (0000ms, 0549ms total)
T2D60 001:302 JLINK_WriteReg(R3, 0x00000000)  returns 0x00 (0000ms, 0549ms total)
T2D60 001:302 JLINK_WriteReg(R4, 0x00000000)  returns 0x00 (0001ms, 0550ms total)
T2D60 001:303 JLINK_WriteReg(R5, 0x00000000)  returns 0x00 (0000ms, 0550ms total)
T2D60 001:303 JLINK_WriteReg(R6, 0x00000000)  returns 0x00 (0000ms, 0550ms total)
T2D60 001:303 JLINK_WriteReg(R7, 0x00000000)  returns 0x00 (0000ms, 0550ms total)
T2D60 001:303 JLINK_WriteReg(R8, 0x00000000)  returns 0x00 (0000ms, 0550ms total)
T2D60 001:303 JLINK_WriteReg(R9, 0x20000160)  returns 0x00 (0000ms, 0550ms total)
T2D60 001:303 JLINK_WriteReg(R10, 0x00000000)  returns 0x00 (0000ms, 0550ms total)
T2D60 001:303 JLINK_WriteReg(R11, 0x00000000)  returns 0x00 (0000ms, 0550ms total)
T2D60 001:303 JLINK_WriteReg(R12, 0x00000000)  returns 0x00 (0000ms, 0550ms total)
T2D60 001:303 JLINK_WriteReg(R13, 0x20000800)  returns 0x00 (0000ms, 0550ms total)
T2D60 001:303 JLINK_WriteReg(R14, 0x20000001)  returns 0x00 (0000ms, 0550ms total)
T2D60 001:303 JLINK_WriteReg(R15, 0x200000F4)  returns 0x00 (0000ms, 0550ms total)
T2D60 001:303 JLINK_WriteReg(XPSR, 0x01000000)  returns 0x00 (0001ms, 0551ms total)
T2D60 001:304 JLINK_WriteReg(MSP, 0x20000800)  returns 0x00 (0000ms, 0551ms total)
T2D60 001:304 JLINK_WriteReg(PSP, 0x20000800)  returns 0x00 (0000ms, 0551ms total)
T2D60 001:304 JLINK_WriteReg(CFBP, 0x00000000)  returns 0x00 (0000ms, 0551ms total)
T2D60 001:304 JLINK_SetBPEx(Addr = 0x20000000, Type = 0xFFFFFFF2)  returns 0x0000000F (0000ms, 0551ms total)
T2D60 001:304 JLINK_Go() -- CPU_WriteMem(4 bytes @ 0xE0002008) -- CPU_WriteMem(4 bytes @ 0xE000200C) -- CPU_WriteMem(4 bytes @ 0xE0002010) -- CPU_WriteMem(4 bytes @ 0xE0002014) -- CPU_WriteMem(4 bytes @ 0xE0002018) -- CPU_WriteMem(4 bytes @ 0xE000201C) (0008ms, 0559ms total)
T2D60 001:312 JLINK_IsHalted()  returns FALSE (0001ms, 0560ms total)
T2D60 001:363 JLINK_IsHalted() -- CPU_ReadMem(2 bytes @ 0x20000000)  returns TRUE (0004ms, 0563ms total)
T2D60 001:367 JLINK_ReadReg(R15)  returns 0x20000000 (0000ms, 0559ms total)
T2D60 001:367 JLINK_ClrBPEx(BPHandle = 0x0000000F)  returns 0x00 (0000ms, 0559ms total)
T2D60 001:367 JLINK_ReadReg(R0)  returns 0x00000000 (0000ms, 0559ms total)
T2D60 001:368 JLINK_WriteMem(0x20000164, 0x0400 Bytes, ...) -- Data:  00 20 1B 90 08 A8 1C 90 01 A8 1D 90 0F A8 00 F0 ... -- CPU_WriteMem(1024 bytes @ 0x20000164)  returns 0x400 (0005ms, 0564ms total)
T2D60 001:373 JLINK_WriteReg(R0, 0x08002C00)  returns 0x00 (0000ms, 0564ms total)
T2D60 001:373 JLINK_WriteReg(R1, 0x00000400)  returns 0x00 (0000ms, 0564ms total)
T2D60 001:373 JLINK_WriteReg(R2, 0x20000164)  returns 0x00 (0000ms, 0564ms total)
T2D60 001:373 JLINK_WriteReg(R3, 0x00000000)  returns 0x00 (0000ms, 0564ms total)
T2D60 001:373 JLINK_WriteReg(R4, 0x00000000)  returns 0x00 (0000ms, 0564ms total)
T2D60 001:373 JLINK_WriteReg(R5, 0x00000000)  returns 0x00 (0000ms, 0564ms total)
T2D60 001:373 JLINK_WriteReg(R6, 0x00000000)  returns 0x00 (0000ms, 0564ms total)
T2D60 001:373 JLINK_WriteReg(R7, 0x00000000)  returns 0x00 (0001ms, 0565ms total)
T2D60 001:374 JLINK_WriteReg(R8, 0x00000000)  returns 0x00 (0000ms, 0565ms total)
T2D60 001:374 JLINK_WriteReg(R9, 0x20000160)  returns 0x00 (0000ms, 0565ms total)
T2D60 001:374 JLINK_WriteReg(R10, 0x00000000)  returns 0x00 (0000ms, 0565ms total)
T2D60 001:374 JLINK_WriteReg(R11, 0x00000000)  returns 0x00 (0000ms, 0565ms total)
T2D60 001:374 JLINK_WriteReg(R12, 0x00000000)  returns 0x00 (0000ms, 0565ms total)
T2D60 001:374 JLINK_WriteReg(R13, 0x20000800)  returns 0x00 (0000ms, 0565ms total)
T2D60 001:374 JLINK_WriteReg(R14, 0x20000001)  returns 0x00 (0000ms, 0565ms total)
T2D60 001:374 JLINK_WriteReg(R15, 0x200000F4)  returns 0x00 (0000ms, 0565ms total)
T2D60 001:374 JLINK_WriteReg(XPSR, 0x01000000)  returns 0x00 (0000ms, 0565ms total)
T2D60 001:374 JLINK_WriteReg(MSP, 0x20000800)  returns 0x00 (0000ms, 0565ms total)
T2D60 001:374 JLINK_WriteReg(PSP, 0x20000800)  returns 0x00 (0000ms, 0565ms total)
T2D60 001:374 JLINK_WriteReg(CFBP, 0x00000000)  returns 0x00 (0000ms, 0565ms total)
T2D60 001:374 JLINK_SetBPEx(Addr = 0x20000000, Type = 0xFFFFFFF2)  returns 0x00000010 (0000ms, 0565ms total)
T2D60 001:374 JLINK_Go() -- CPU_WriteMem(4 bytes @ 0xE0002008) -- CPU_WriteMem(4 bytes @ 0xE000200C) -- CPU_WriteMem(4 bytes @ 0xE0002010) -- CPU_WriteMem(4 bytes @ 0xE0002014) -- CPU_WriteMem(4 bytes @ 0xE0002018) -- CPU_WriteMem(4 bytes @ 0xE000201C) (0008ms, 0573ms total)
T2D60 001:382 JLINK_IsHalted()  returns FALSE (0001ms, 0574ms total)
T2D60 001:433 JLINK_IsHalted() -- CPU_ReadMem(2 bytes @ 0x20000000)  returns TRUE (0008ms, 0581ms total)
T2D60 001:441 JLINK_ReadReg(R15)  returns 0x20000000 (0000ms, 0573ms total)
T2D60 001:441 JLINK_ClrBPEx(BPHandle = 0x00000010)  returns 0x00 (0000ms, 0573ms total)
T2D60 001:441 JLINK_ReadReg(R0)  returns 0x00000000 (0000ms, 0573ms total)
T2D60 001:442 JLINK_WriteMem(0x20000164, 0x0400 Bytes, ...) -- Data:  00 24 11 E0 05 EB 06 10 54 49 08 5C 80 21 21 41 ... -- CPU_WriteMem(1024 bytes @ 0x20000164)  returns 0x400 (0005ms, 0578ms total)
T2D60 001:447 JLINK_WriteReg(R0, 0x08003000)  returns 0x00 (0000ms, 0578ms total)
T2D60 001:447 JLINK_WriteReg(R1, 0x00000400)  returns 0x00 (0000ms, 0578ms total)
T2D60 001:447 JLINK_WriteReg(R2, 0x20000164)  returns 0x00 (0000ms, 0578ms total)
T2D60 001:447 JLINK_WriteReg(R3, 0x00000000)  returns 0x00 (0000ms, 0578ms total)
T2D60 001:447 JLINK_WriteReg(R4, 0x00000000)  returns 0x00 (0000ms, 0578ms total)
T2D60 001:447 JLINK_WriteReg(R5, 0x00000000)  returns 0x00 (0000ms, 0578ms total)
T2D60 001:447 JLINK_WriteReg(R6, 0x00000000)  returns 0x00 (0000ms, 0578ms total)
T2D60 001:447 JLINK_WriteReg(R7, 0x00000000)  returns 0x00 (0001ms, 0579ms total)
T2D60 001:448 JLINK_WriteReg(R8, 0x00000000)  returns 0x00 (0000ms, 0579ms total)
T2D60 001:448 JLINK_WriteReg(R9, 0x20000160)  returns 0x00 (0000ms, 0579ms total)
